T05B4 000:051.155   SEGGER J-Link V8.10l Log File
T05B4 000:051.258   DLL Compiled: Dec 11 2024 15:58:21
T05B4 000:051.263   Logging started @ 2025-04-22 15:23
T05B4 000:051.268   Process: D:\Keil_v5\UV4\UV4.exe
T05B4 000:051.275 - 51.272ms 
T05B4 000:051.282 JLINK_SetWarnOutHandler(...)
T05B4 000:051.287 - 0.005ms 
T05B4 000:051.292 JLINK_OpenEx(...)
T05B4 000:056.008   Firmware: J-Link OB-STM32F072-CortexM compiled Jan  7 2019 14:09:37
T05B4 000:056.881   Firmware: J-Link OB-STM32F072-CortexM compiled Jan  7 2019 14:09:37
T05B4 000:057.018   Decompressing FW timestamp took 120 us
T05B4 000:062.097   Hardware: V1.00
T05B4 000:062.105   S/N: 682642430
T05B4 000:062.111   OEM: SEGGER
T05B4 000:062.117   Feature(s): GDB, RDI, FlashBP, FlashDL, JFlash, RDDI
T05B4 000:063.183   Bootloader: (FW returned invalid version)
T05B4 000:064.250   TELNET listener socket opened on port 19021
T05B4 000:064.325   WEBSRV WEBSRV_Init(): Starting webserver thread(s)
T05B4 000:064.436   WEBSRV Webserver running on local port 19080
T05B4 000:064.522   Looking for J-Link GUI Server exe at: D:\Keil_v5\ARM\Segger\JLinkGUIServer.exe
T05B4 000:064.583   Looking for J-Link GUI Server exe at: C:\Program Files\SEGGER\JLink_V810l\JLinkGUIServer.exe
T05B4 000:064.617   Forking J-Link GUI Server: C:\Program Files\SEGGER\JLink_V810l\JLinkGUIServer.exe
T05B4 000:069.701   J-Link GUI Server info: "J-Link GUI server V8.10l "
T05B4 000:070.065 - 18.765ms returns "O.K."
T05B4 000:070.118 JLINK_SetErrorOutHandler(...)
T05B4 000:070.125 - 0.007ms 
T05B4 000:070.150 JLINK_ExecCommand("ProjectFile = "D:\≈∑≥€\»»œ‚«∂ª˙\nvtotouchctl\MDK\JLinkSettings.ini"", ...). 
T05B4 000:084.271   XML file found at: C:\Users\yanyu\AppData\Roaming\SEGGER\JLinkDevices\ST\STM32H563_BUP_COM\STM32H563_COM.xml
T05B4 000:085.339   C:\Users\yanyu\AppData\Roaming\SEGGER\JLinkDevices\ST\STM32H563_BUP_COM\STM32H563_COM.xml evaluated successfully.
T05B4 000:085.356     Device entry modified: STM32H563RG
T05B4 000:085.371       FlashBankInfo:
T05B4 000:085.379         Name:            External Nor QFlash
T05B4 000:085.387         BaseAddr:        0x90000000
T05B4 000:085.396         AlwaysPresent:   0
T05B4 000:085.456         LoaderInfo:
T05B4 000:085.464           Name:            External Nor QFlash
T05B4 000:085.471           MaxSize:         0x04000000
T05B4 000:085.479           Loader:          C:\Users\yanyu\AppData\Roaming\SEGGER\JLinkDevices\ST\STM32H563_BUP_COM\BUP_COM_NOR_JLinkLoader.elf
T05B4 000:085.487           LoaderType:      FLASH_ALGO_TYPE_OPEN
T05B4 000:085.784   Ref file found at: D:\Keil_v5\ARM\Segger\JLinkDevices.ref
T05B4 000:085.864   REF file references invalid XML file: C:\Program Files\SEGGER\JLink_V810l\JLinkDevices.xml
T05B4 000:087.150 - 17.000ms returns 0x00
T05B4 000:091.189 JLINK_ExecCommand("Device = M0518LD2AE", ...). 
T05B4 000:096.967   Device "M0518LD2AE" selected.
T05B4 000:097.287 - 6.077ms returns 0x00
T05B4 000:097.307 JLINK_ExecCommand("DisableConnectionTimeout", ...). 
T05B4 000:097.320   ERROR: Unknown command
T05B4 000:097.328 - 0.014ms returns 0x01
T05B4 000:097.452 JLINK_GetHardwareVersion()
T05B4 000:097.469 - 0.017ms returns 10000
T05B4 000:097.475 JLINK_GetDLLVersion()
T05B4 000:097.479 - 0.004ms returns 81012
T05B4 000:097.505 JLINK_GetOEMString(...)
T05B4 000:097.511 JLINK_GetFirmwareString(...)
T05B4 000:097.515 - 0.004ms 
T05B4 000:108.178 JLINK_GetDLLVersion()
T05B4 000:108.193 - 0.014ms returns 81012
T05B4 000:108.198 JLINK_GetCompileDateTime()
T05B4 000:108.202 - 0.004ms 
T05B4 000:114.160 JLINK_GetFirmwareString(...)
T05B4 000:114.178 - 0.017ms 
T05B4 000:117.871 JLINK_GetHardwareVersion()
T05B4 000:117.888 - 0.016ms returns 10000
T05B4 000:122.242 JLINK_GetSN()
T05B4 000:122.257 - 0.014ms returns 682642430
T05B4 000:125.246 JLINK_GetOEMString(...)
T05B4 000:134.445 JLINK_TIF_Select(JLINKARM_TIF_SWD)
T05B4 000:135.164 - 0.718ms returns 0x00
T05B4 000:135.172 JLINK_HasError()
T05B4 000:135.182 JLINK_SetSpeed(1000)
T05B4 000:135.278 - 0.097ms 
T05B4 000:135.285 JLINK_GetId()
T05B4 000:140.006   Found SW-DP with ID 0x0BB11477
T05B4 000:142.915   Old FW that does not support reading DPIDR via DAP jobs
T05B4 000:147.962   DPv0 detected
T05B4 000:151.947   CoreSight SoC-400 or earlier
T05B4 000:155.750   Scanning AP map to find all available APs
T05B4 000:160.365   AP[1]: Stopped AP scan as end of AP map has been reached
T05B4 000:163.325   AP[0]: AHB-AP (IDR: 0x04770021, ADDR: 0x00000000)
T05B4 000:168.010   Iterating through AP map to find AHB-AP to use
T05B4 000:172.659   AP[0]: Core found
T05B4 000:176.572   AP[0]: AHB-AP ROM base: 0xE00FF000
T05B4 000:181.227   CPUID register: 0x410CC200. Implementer code: 0x41 (ARM)
T05B4 000:185.161   Found Cortex-M0 r0p0, Little endian.
T05B4 000:185.644   -- Max. mem block: 0x00002340
T05B4 000:186.388   CPU_ReadMem(4 bytes @ 0xE000EDF0)
T05B4 000:186.988   CPU_WriteMem(4 bytes @ 0xE000EDF0)
T05B4 000:187.568   CPU_ReadMem(4 bytes @ 0xE0002000)
T05B4 000:191.154   FPUnit: 4 code (BP) slots and 0 literal slots
T05B4 000:191.173   CPU_ReadMem(4 bytes @ 0xE000EDFC)
T05B4 000:191.776   CPU_WriteMem(4 bytes @ 0xE000EDFC)
T05B4 000:192.375   CPU_ReadMem(4 bytes @ 0xE0001000)
T05B4 000:192.975   CPU_WriteMem(4 bytes @ 0xE0001000)
T05B4 000:196.836   CoreSight components:
T05B4 000:200.144   ROMTbl[0] @ E00FF000
T05B4 000:200.165   CPU_ReadMem(64 bytes @ 0xE00FF000)
T05B4 000:201.683   CPU_ReadMem(32 bytes @ 0xE000EFE0)
T05B4 000:205.773   [0][0]: E000E000 CID B105E00D PID 000BB008 SCS
T05B4 000:205.792   CPU_ReadMem(32 bytes @ 0xE0001FE0)
T05B4 000:209.651   [0][1]: E0001000 CID B105E00D PID 000BB00A DWT
T05B4 000:209.670   CPU_ReadMem(32 bytes @ 0xE0002FE0)
T05B4 000:213.206   [0][2]: E0002000 CID B105E00D PID 000BB00B FPB
T05B4 000:213.556 - 78.270ms returns 0x0BB11477
T05B4 000:213.571 JLINK_GetDLLVersion()
T05B4 000:213.576 - 0.004ms returns 81012
T05B4 000:213.613 JLINK_CORE_GetFound()
T05B4 000:213.618 - 0.004ms returns 0x60000FF
T05B4 000:213.623 JLINK_GetDebugInfo(0x100 = JLINKARM_ROM_TABLE_ADDR_INDEX)
T05B4 000:213.630   Value=0xE00FF000
T05B4 000:213.636 - 0.012ms returns 0
T05B4 000:216.069 JLINK_GetDebugInfo(0x100 = JLINKARM_ROM_TABLE_ADDR_INDEX)
T05B4 000:216.083   Value=0xE00FF000
T05B4 000:216.090 - 0.020ms returns 0
T05B4 000:216.095 JLINK_GetDebugInfo(0x101 = JLINKARM_DEBUG_INFO_ETM_ADDR_INDEX)
T05B4 000:216.099   Value=0x00000000
T05B4 000:216.105 - 0.010ms returns 0
T05B4 000:216.111 JLINK_ReadMem(0xE0041FF0, 0x10 Bytes, ...)
T05B4 000:216.131   CPU_ReadMem(16 bytes @ 0xE0041FF0)
T05B4 000:216.895   Data:  00 00 00 00 00 00 00 00 00 00 00 00 00 00 00 00
T05B4 000:216.910 - 0.799ms returns 0
T05B4 000:216.918 JLINK_GetDebugInfo(0x102 = JLINKARM_DEBUG_INFO_MTB_ADDR_INDEX)
T05B4 000:216.922   Value=0x00000000
T05B4 000:216.928 - 0.011ms returns 0
T05B4 000:216.934 JLINK_GetDebugInfo(0x103 = JLINKARM_DEBUG_INFO_TPIU_ADDR_INDEX)
T05B4 000:216.938   Value=0x00000000
T05B4 000:216.944 - 0.010ms returns 0
T05B4 000:216.949 JLINK_ReadMem(0xE0040FF0, 0x10 Bytes, ...)
T05B4 000:216.957   CPU_ReadMem(16 bytes @ 0xE0040FF0)
T05B4 000:217.654   Data:  00 00 00 00 00 00 00 00 00 00 00 00 00 00 00 00
T05B4 000:217.661 - 0.712ms returns 0
T05B4 000:217.667 JLINK_GetDebugInfo(0x104 = JLINKARM_DEBUG_INFO_ITM_ADDR_INDEX)
T05B4 000:217.671   Value=0xE0000000
T05B4 000:217.676 - 0.010ms returns 0
T05B4 000:217.681 JLINK_GetDebugInfo(0x105 = JLINKARM_DEBUG_INFO_DWT_ADDR_INDEX)
T05B4 000:217.685   Value=0xE0001000
T05B4 000:217.691 - 0.009ms returns 0
T05B4 000:217.696 JLINK_GetDebugInfo(0x106 = JLINKARM_DEBUG_INFO_FPB_ADDR_INDEX)
T05B4 000:217.700   Value=0xE0002000
T05B4 000:217.705 - 0.009ms returns 0
T05B4 000:217.710 JLINK_GetDebugInfo(0x107 = JLINKARM_DEBUG_INFO_NVIC_ADDR_INDEX)
T05B4 000:217.714   Value=0xE000E000
T05B4 000:217.720 - 0.009ms returns 0
T05B4 000:217.725 JLINK_GetDebugInfo(0x10C = JLINKARM_DEBUG_INFO_DBG_ADDR_INDEX)
T05B4 000:217.729   Value=0xE000EDF0
T05B4 000:217.735 - 0.010ms returns 0
T05B4 000:217.740 JLINK_ReadMemU32(0xE000ED00, 0x1 Items)
T05B4 000:217.746   CPU_ReadMem(4 bytes @ 0xE000ED00)
T05B4 000:218.289   Data:  00 C2 0C 41
T05B4 000:218.298   Debug reg: CPUID
T05B4 000:218.304 - 0.564ms returns 1 (0x1)
T05B4 000:218.311 JLINK_HasError()
T05B4 000:218.316 JLINK_SetResetType(JLINKARM_CM3_RESET_TYPE_NORMAL)
T05B4 000:218.321 - 0.004ms returns JLINKARM_CM3_RESET_TYPE_NORMAL
T05B4 000:218.326 JLINK_Reset()
T05B4 000:218.333   JLINK_GetResetTypeDesc
T05B4 000:218.337   - 0.004ms 
T05B4 000:220.868   Reset type: NORMAL (https://wiki.segger.com/J-Link_Reset_Strategies)
T05B4 000:220.886   CPU is running
T05B4 000:220.894   CPU_WriteMem(4 bytes @ 0xE000EDF0)
T05B4 000:221.494   CPU is running
T05B4 000:221.507   CPU_WriteMem(4 bytes @ 0xE000EDFC)
T05B4 000:224.668   Reset: Halt core after reset via DEMCR.VC_CORERESET.
T05B4 000:229.181   Reset: Reset device via AIRCR.SYSRESETREQ.
T05B4 000:229.198   CPU is running
T05B4 000:229.207   CPU_WriteMem(4 bytes @ 0xE000ED0C)
T05B4 000:283.191   CPU_ReadMem(4 bytes @ 0xE000EDF0)
T05B4 000:284.065   CPU_ReadMem(4 bytes @ 0xE000EDF0)
T05B4 000:291.874   CPU_WriteMem(4 bytes @ 0xE000EDFC)
T05B4 000:298.674   CPU_ReadMem(4 bytes @ 0xE000EDF0)
T05B4 000:306.872   CPU_WriteMem(4 bytes @ 0xE0002000)
T05B4 000:307.981   CPU_ReadMem(4 bytes @ 0xE000EDFC)
T05B4 000:309.059   CPU_ReadMem(4 bytes @ 0xE0001000)
T05B4 000:310.272   CPU_WriteMem(4 bytes @ 0xE0001000)
T05B4 000:311.475 - 93.146ms 
T05B4 000:311.619 JLINK_Halt()
T05B4 000:311.634 - 0.015ms returns 0x00
T05B4 000:311.867 JLINK_IsHalted()
T05B4 000:311.926 - 0.058ms returns TRUE
T05B4 000:311.948 JLINK_ReadMemU32(0xE000EDF0, 0x1 Items)
T05B4 000:311.984   CPU_ReadMem(4 bytes @ 0xE000EDF0)
T05B4 000:312.900   Data:  03 00 03 00
T05B4 000:312.953   Debug reg: DHCSR
T05B4 000:312.975 - 1.027ms returns 1 (0x1)
T05B4 000:313.000 JLINK_WriteU32(0xE000EDF0, 0xA05F0003)
T05B4 000:313.013   Debug reg: DHCSR
T05B4 000:313.846   CPU_WriteMem(4 bytes @ 0xE000EDF0)
T05B4 000:314.868 - 1.866ms returns 0 (0x00000000)
T05B4 000:314.955 JLINK_WriteU32(0xE000EDFC, 0x01000000)
T05B4 000:314.970   Debug reg: DEMCR
T05B4 000:315.012   CPU_WriteMem(4 bytes @ 0xE000EDFC)
T05B4 000:315.936 - 0.981ms returns 0 (0x00000000)
T05B4 000:333.337 JLINK_GetHWStatus(...)
T05B4 000:333.801 - 0.463ms returns 0
T05B4 000:344.929 JLINK_GetNumBPUnits(Type = 0xFFFFFF00)
T05B4 000:344.946 - 0.016ms returns 0x04
T05B4 000:344.951 JLINK_GetNumBPUnits(Type = 0xF0)
T05B4 000:344.956 - 0.004ms returns 0x2000
T05B4 000:344.960 JLINK_GetNumWPUnits()
T05B4 000:344.965 - 0.004ms returns 2
T05B4 000:359.320 JLINK_GetSpeed()
T05B4 000:359.343 - 0.023ms returns 1000
T05B4 000:367.150 JLINK_ReadMemU32(0xE000E004, 0x1 Items)
T05B4 000:367.179   CPU_ReadMem(4 bytes @ 0xE000E004)
T05B4 000:367.946   Data:  00 00 00 00
T05B4 000:367.963 - 0.812ms returns 1 (0x1)
T05B4 000:367.973 JLINK_Halt()
T05B4 000:367.978 - 0.004ms returns 0x00
T05B4 000:367.983 JLINK_IsHalted()
T05B4 000:367.988 - 0.005ms returns TRUE
T05B4 000:379.201 JLINK_WriteMem(0x20000000, 0x24C Bytes, ...)
T05B4 000:379.214   Data:  00 BE 0A E0 0D 78 2D 06 68 40 08 24 40 00 00 D3 ...
T05B4 000:379.530   CPU_WriteMem(588 bytes @ 0x20000000)
T05B4 000:389.042 - 9.841ms returns 0x24C
T05B4 000:389.094 JLINK_HasError()
T05B4 000:389.101 JLINK_WriteReg(R0, 0x00000000)
T05B4 000:389.108 - 0.006ms returns 0
T05B4 000:389.113 JLINK_WriteReg(R1, 0x00B71B00)
T05B4 000:389.117 - 0.004ms returns 0
T05B4 000:389.224 JLINK_WriteReg(R2, 0x00000001)
T05B4 000:389.241 - 0.017ms returns 0
T05B4 000:389.247 JLINK_WriteReg(R3, 0x00000000)
T05B4 000:389.251 - 0.004ms returns 0
T05B4 000:389.256 JLINK_WriteReg(R4, 0x00000000)
T05B4 000:389.260 - 0.004ms returns 0
T05B4 000:389.265 JLINK_WriteReg(R5, 0x00000000)
T05B4 000:389.269 - 0.003ms returns 0
T05B4 000:389.273 JLINK_WriteReg(R6, 0x00000000)
T05B4 000:389.277 - 0.004ms returns 0
T05B4 000:389.282 JLINK_WriteReg(R7, 0x00000000)
T05B4 000:389.286 - 0.004ms returns 0
T05B4 000:389.662 JLINK_WriteReg(R8, 0x00000000)
T05B4 000:389.679 - 0.387ms returns 0
T05B4 000:389.686 JLINK_WriteReg(R9, 0x20000248)
T05B4 000:389.696 - 0.010ms returns 0
T05B4 000:389.701 JLINK_WriteReg(R10, 0x00000000)
T05B4 000:389.705 - 0.004ms returns 0
T05B4 000:389.710 JLINK_WriteReg(R11, 0x00000000)
T05B4 000:389.714 - 0.004ms returns 0
T05B4 000:389.718 JLINK_WriteReg(R12, 0x00000000)
T05B4 000:389.722 - 0.004ms returns 0
T05B4 000:389.727 JLINK_WriteReg(R13 (SP), 0x20001000)
T05B4 000:389.732 - 0.005ms returns 0
T05B4 000:389.737 JLINK_WriteReg(R14, 0x20000001)
T05B4 000:389.741 - 0.004ms returns 0
T05B4 000:389.749 JLINK_WriteReg(R15 (PC), 0x20000038)
T05B4 000:389.753 - 0.007ms returns 0
T05B4 000:389.758 JLINK_WriteReg(XPSR, 0x01000000)
T05B4 000:389.762 - 0.004ms returns 0
T05B4 000:389.766 JLINK_WriteReg(MSP, 0x20001000)
T05B4 000:389.770 - 0.004ms returns 0
T05B4 000:389.775 JLINK_WriteReg(PSP, 0x20001000)
T05B4 000:389.779 - 0.003ms returns 0
T05B4 000:389.783 JLINK_WriteReg(CFBP, 0x00000000)
T05B4 000:389.788 - 0.004ms returns 0
T05B4 000:389.793 JLINK_SetBPEx(Addr = 0x20000000, Type = 0xFFFFFFF2)
T05B4 000:389.803   CPU_ReadMem(2 bytes @ 0x20000000)
T05B4 000:390.702 - 0.908ms returns 0x00000001
T05B4 000:390.719 JLINK_Go()
T05B4 000:390.726   CPU_WriteMem(2 bytes @ 0x20000000)
T05B4 000:391.524   CPU_ReadMem(4 bytes @ 0xE0001000)
T05B4 000:392.265   CPU_WriteMem(4 bytes @ 0xE0001000)
T05B4 000:393.125   CPU_WriteMem(4 bytes @ 0xE0002008)
T05B4 000:393.146   CPU_WriteMem(4 bytes @ 0xE000200C)
T05B4 000:393.152   CPU_WriteMem(4 bytes @ 0xE0002010)
T05B4 000:393.159   CPU_WriteMem(4 bytes @ 0xE0002014)
T05B4 000:395.426   CPU_WriteMem(4 bytes @ 0xE0001004)
T05B4 000:408.845   Memory map 'after startup completion point' is active
T05B4 000:408.888 - 18.168ms 
T05B4 000:408.907 JLINK_IsHalted()
T05B4 000:415.882   CPU_ReadMem(2 bytes @ 0x20000000)
T05B4 000:416.673 - 7.765ms returns TRUE
T05B4 000:416.702 JLINK_ReadReg(R15 (PC))
T05B4 000:416.716 - 0.016ms returns 0x20000000
T05B4 000:416.803 JLINK_ClrBPEx(BPHandle = 0x00000001)
T05B4 000:416.816 - 0.013ms returns 0x00
T05B4 000:416.828 JLINK_ReadReg(R0)
T05B4 000:416.838 - 0.009ms returns 0x00000000
T05B4 000:417.765 JLINK_HasError()
T05B4 000:417.799 JLINK_WriteReg(R0, 0x00000000)
T05B4 000:417.813 - 0.013ms returns 0
T05B4 000:417.826 JLINK_WriteReg(R1, 0x00000200)
T05B4 000:417.835 - 0.010ms returns 0
T05B4 000:417.847 JLINK_WriteReg(R2, 0x000000FF)
T05B4 000:417.856 - 0.009ms returns 0
T05B4 000:417.868 JLINK_WriteReg(R3, 0x00000000)
T05B4 000:417.877 - 0.009ms returns 0
T05B4 000:417.888 JLINK_WriteReg(R4, 0x00000000)
T05B4 000:417.898 - 0.009ms returns 0
T05B4 000:417.909 JLINK_WriteReg(R5, 0x00000000)
T05B4 000:417.918 - 0.009ms returns 0
T05B4 000:417.929 JLINK_WriteReg(R6, 0x00000000)
T05B4 000:417.939 - 0.009ms returns 0
T05B4 000:417.950 JLINK_WriteReg(R7, 0x00000000)
T05B4 000:417.959 - 0.009ms returns 0
T05B4 000:417.971 JLINK_WriteReg(R8, 0x00000000)
T05B4 000:417.980 - 0.009ms returns 0
T05B4 000:417.991 JLINK_WriteReg(R9, 0x20000248)
T05B4 000:418.001 - 0.009ms returns 0
T05B4 000:418.013 JLINK_WriteReg(R10, 0x00000000)
T05B4 000:418.023 - 0.009ms returns 0
T05B4 000:418.034 JLINK_WriteReg(R11, 0x00000000)
T05B4 000:418.043 - 0.009ms returns 0
T05B4 000:418.054 JLINK_WriteReg(R12, 0x00000000)
T05B4 000:418.064 - 0.009ms returns 0
T05B4 000:418.075 JLINK_WriteReg(R13 (SP), 0x20001000)
T05B4 000:418.092 - 0.016ms returns 0
T05B4 000:418.103 JLINK_WriteReg(R14, 0x20000001)
T05B4 000:418.113 - 0.009ms returns 0
T05B4 000:418.124 JLINK_WriteReg(R15 (PC), 0x20000020)
T05B4 000:418.134 - 0.010ms returns 0
T05B4 000:418.145 JLINK_WriteReg(XPSR, 0x01000000)
T05B4 000:418.155 - 0.010ms returns 0
T05B4 000:418.166 JLINK_WriteReg(MSP, 0x20001000)
T05B4 000:418.176 - 0.009ms returns 0
T05B4 000:418.187 JLINK_WriteReg(PSP, 0x20001000)
T05B4 000:418.197 - 0.009ms returns 0
T05B4 000:418.208 JLINK_WriteReg(CFBP, 0x00000000)
T05B4 000:418.217 - 0.009ms returns 0
T05B4 000:418.230 JLINK_SetBPEx(Addr = 0x20000000, Type = 0xFFFFFFF2)
T05B4 000:418.242 - 0.012ms returns 0x00000002
T05B4 000:418.331 JLINK_Go()
T05B4 000:418.361   CPU_ReadMem(4 bytes @ 0xE0001000)
T05B4 000:425.784 - 7.451ms 
T05B4 000:425.817 JLINK_IsHalted()
T05B4 000:432.782   CPU_ReadMem(2 bytes @ 0x20000000)
T05B4 000:433.671 - 7.853ms returns TRUE
T05B4 000:433.692 JLINK_ReadReg(R15 (PC))
T05B4 000:433.709 - 0.017ms returns 0x20000000
T05B4 000:433.725 JLINK_ClrBPEx(BPHandle = 0x00000002)
T05B4 000:433.739 - 0.014ms returns 0x00
T05B4 000:433.755 JLINK_ReadReg(R0)
T05B4 000:433.769 - 0.013ms returns 0x00000001
T05B4 000:433.785 JLINK_HasError()
T05B4 000:433.800 JLINK_WriteReg(R0, 0x00000000)
T05B4 000:433.814 - 0.014ms returns 0
T05B4 000:433.829 JLINK_WriteReg(R1, 0x00000200)
T05B4 000:433.842 - 0.012ms returns 0
T05B4 000:433.857 JLINK_WriteReg(R2, 0x000000FF)
T05B4 000:433.869 - 0.012ms returns 0
T05B4 000:433.884 JLINK_WriteReg(R3, 0x00000000)
T05B4 000:433.897 - 0.012ms returns 0
T05B4 000:433.912 JLINK_WriteReg(R4, 0x00000000)
T05B4 000:433.931 - 0.019ms returns 0
T05B4 000:433.946 JLINK_WriteReg(R5, 0x00000000)
T05B4 000:433.959 - 0.013ms returns 0
T05B4 000:433.974 JLINK_WriteReg(R6, 0x00000000)
T05B4 000:433.987 - 0.013ms returns 0
T05B4 000:434.003 JLINK_WriteReg(R7, 0x00000000)
T05B4 000:434.016 - 0.013ms returns 0
T05B4 000:434.031 JLINK_WriteReg(R8, 0x00000000)
T05B4 000:434.043 - 0.013ms returns 0
T05B4 000:434.058 JLINK_WriteReg(R9, 0x20000248)
T05B4 000:434.071 - 0.012ms returns 0
T05B4 000:434.085 JLINK_WriteReg(R10, 0x00000000)
T05B4 000:434.098 - 0.013ms returns 0
T05B4 000:434.114 JLINK_WriteReg(R11, 0x00000000)
T05B4 000:434.127 - 0.013ms returns 0
T05B4 000:434.142 JLINK_WriteReg(R12, 0x00000000)
T05B4 000:434.154 - 0.012ms returns 0
T05B4 000:434.169 JLINK_WriteReg(R13 (SP), 0x20001000)
T05B4 000:434.183 - 0.013ms returns 0
T05B4 000:434.198 JLINK_WriteReg(R14, 0x20000001)
T05B4 000:434.210 - 0.013ms returns 0
T05B4 000:434.225 JLINK_WriteReg(R15 (PC), 0x200000DC)
T05B4 000:434.238 - 0.013ms returns 0
T05B4 000:434.253 JLINK_WriteReg(XPSR, 0x01000000)
T05B4 000:434.266 - 0.013ms returns 0
T05B4 000:434.281 JLINK_WriteReg(MSP, 0x20001000)
T05B4 000:434.293 - 0.012ms returns 0
T05B4 000:434.308 JLINK_WriteReg(PSP, 0x20001000)
T05B4 000:434.321 - 0.013ms returns 0
T05B4 000:434.336 JLINK_WriteReg(CFBP, 0x00000000)
T05B4 000:434.349 - 0.013ms returns 0
T05B4 000:434.365 JLINK_SetBPEx(Addr = 0x20000000, Type = 0xFFFFFFF2)
T05B4 000:434.379 - 0.014ms returns 0x00000003
T05B4 000:434.394 JLINK_Go()
T05B4 000:434.416   CPU_ReadMem(4 bytes @ 0xE0001000)
T05B4 000:441.752 - 7.357ms 
T05B4 000:441.773 JLINK_IsHalted()
T05B4 000:442.733 - 0.959ms returns FALSE
T05B4 000:442.770 JLINK_HasError()
T05B4 000:471.616 JLINK_IsHalted()
T05B4 000:478.661   CPU_ReadMem(2 bytes @ 0x20000000)
T05B4 000:479.258 - 7.641ms returns TRUE
T05B4 000:479.277 JLINK_ReadReg(R15 (PC))
T05B4 000:479.286 - 0.008ms returns 0x20000000
T05B4 000:479.293 JLINK_ClrBPEx(BPHandle = 0x00000003)
T05B4 000:479.299 - 0.006ms returns 0x00
T05B4 000:479.306 JLINK_ReadReg(R0)
T05B4 000:479.312 - 0.005ms returns 0x00000000
T05B4 000:480.049 JLINK_HasError()
T05B4 000:480.070 JLINK_WriteReg(R0, 0x00000200)
T05B4 000:480.079 - 0.009ms returns 0
T05B4 000:480.087 JLINK_WriteReg(R1, 0x00000200)
T05B4 000:480.093 - 0.006ms returns 0
T05B4 000:480.101 JLINK_WriteReg(R2, 0x000000FF)
T05B4 000:480.107 - 0.006ms returns 0
T05B4 000:480.114 JLINK_WriteReg(R3, 0x00000000)
T05B4 000:480.121 - 0.006ms returns 0
T05B4 000:480.128 JLINK_WriteReg(R4, 0x00000000)
T05B4 000:480.134 - 0.006ms returns 0
T05B4 000:480.141 JLINK_WriteReg(R5, 0x00000000)
T05B4 000:480.147 - 0.006ms returns 0
T05B4 000:480.154 JLINK_WriteReg(R6, 0x00000000)
T05B4 000:480.161 - 0.006ms returns 0
T05B4 000:480.168 JLINK_WriteReg(R7, 0x00000000)
T05B4 000:480.174 - 0.006ms returns 0
T05B4 000:480.181 JLINK_WriteReg(R8, 0x00000000)
T05B4 000:480.187 - 0.006ms returns 0
T05B4 000:480.195 JLINK_WriteReg(R9, 0x20000248)
T05B4 000:480.201 - 0.006ms returns 0
T05B4 000:480.208 JLINK_WriteReg(R10, 0x00000000)
T05B4 000:480.256 - 0.048ms returns 0
T05B4 000:480.267 JLINK_WriteReg(R11, 0x00000000)
T05B4 000:480.273 - 0.006ms returns 0
T05B4 000:480.280 JLINK_WriteReg(R12, 0x00000000)
T05B4 000:480.286 - 0.006ms returns 0
T05B4 000:480.294 JLINK_WriteReg(R13 (SP), 0x20001000)
T05B4 000:480.300 - 0.006ms returns 0
T05B4 000:480.307 JLINK_WriteReg(R14, 0x20000001)
T05B4 000:480.314 - 0.006ms returns 0
T05B4 000:480.321 JLINK_WriteReg(R15 (PC), 0x20000020)
T05B4 000:480.327 - 0.006ms returns 0
T05B4 000:480.335 JLINK_WriteReg(XPSR, 0x01000000)
T05B4 000:480.341 - 0.006ms returns 0
T05B4 000:480.363 JLINK_WriteReg(MSP, 0x20001000)
T05B4 000:480.369 - 0.006ms returns 0
T05B4 000:480.376 JLINK_WriteReg(PSP, 0x20001000)
T05B4 000:480.382 - 0.006ms returns 0
T05B4 000:480.390 JLINK_WriteReg(CFBP, 0x00000000)
T05B4 000:480.396 - 0.006ms returns 0
T05B4 000:480.404 JLINK_SetBPEx(Addr = 0x20000000, Type = 0xFFFFFFF2)
T05B4 000:480.412 - 0.008ms returns 0x00000004
T05B4 000:480.419 JLINK_Go()
T05B4 000:480.432   CPU_ReadMem(4 bytes @ 0xE0001000)
T05B4 000:487.420 - 7.001ms 
T05B4 000:487.437 JLINK_IsHalted()
T05B4 000:494.252   CPU_ReadMem(2 bytes @ 0x20000000)
T05B4 000:494.861 - 7.423ms returns TRUE
T05B4 000:494.888 JLINK_ReadReg(R15 (PC))
T05B4 000:494.895 - 0.007ms returns 0x20000000
T05B4 000:494.931 JLINK_ClrBPEx(BPHandle = 0x00000004)
T05B4 000:494.937 - 0.006ms returns 0x00
T05B4 000:494.943 JLINK_ReadReg(R0)
T05B4 000:494.948 - 0.004ms returns 0x00000001
T05B4 000:494.954 JLINK_HasError()
T05B4 000:494.960 JLINK_WriteReg(R0, 0x00000200)
T05B4 000:494.965 - 0.004ms returns 0
T05B4 000:494.970 JLINK_WriteReg(R1, 0x00000200)
T05B4 000:494.974 - 0.004ms returns 0
T05B4 000:494.979 JLINK_WriteReg(R2, 0x000000FF)
T05B4 000:494.983 - 0.004ms returns 0
T05B4 000:494.988 JLINK_WriteReg(R3, 0x00000000)
T05B4 000:494.992 - 0.004ms returns 0
T05B4 000:494.997 JLINK_WriteReg(R4, 0x00000000)
T05B4 000:495.002 - 0.004ms returns 0
T05B4 000:495.007 JLINK_WriteReg(R5, 0x00000000)
T05B4 000:495.011 - 0.004ms returns 0
T05B4 000:495.016 JLINK_WriteReg(R6, 0x00000000)
T05B4 000:495.020 - 0.004ms returns 0
T05B4 000:495.025 JLINK_WriteReg(R7, 0x00000000)
T05B4 000:495.029 - 0.004ms returns 0
T05B4 000:495.034 JLINK_WriteReg(R8, 0x00000000)
T05B4 000:495.038 - 0.004ms returns 0
T05B4 000:495.043 JLINK_WriteReg(R9, 0x20000248)
T05B4 000:495.047 - 0.004ms returns 0
T05B4 000:495.051 JLINK_WriteReg(R10, 0x00000000)
T05B4 000:495.056 - 0.004ms returns 0
T05B4 000:495.060 JLINK_WriteReg(R11, 0x00000000)
T05B4 000:495.065 - 0.004ms returns 0
T05B4 000:495.069 JLINK_WriteReg(R12, 0x00000000)
T05B4 000:495.078 - 0.009ms returns 0
T05B4 000:495.083 JLINK_WriteReg(R13 (SP), 0x20001000)
T05B4 000:495.088 - 0.004ms returns 0
T05B4 000:495.093 JLINK_WriteReg(R14, 0x20000001)
T05B4 000:495.097 - 0.004ms returns 0
T05B4 000:495.102 JLINK_WriteReg(R15 (PC), 0x200000DC)
T05B4 000:495.106 - 0.004ms returns 0
T05B4 000:495.111 JLINK_WriteReg(XPSR, 0x01000000)
T05B4 000:495.115 - 0.004ms returns 0
T05B4 000:495.120 JLINK_WriteReg(MSP, 0x20001000)
T05B4 000:495.124 - 0.004ms returns 0
T05B4 000:495.129 JLINK_WriteReg(PSP, 0x20001000)
T05B4 000:495.133 - 0.004ms returns 0
T05B4 000:495.138 JLINK_WriteReg(CFBP, 0x00000000)
T05B4 000:495.142 - 0.004ms returns 0
T05B4 000:495.147 JLINK_SetBPEx(Addr = 0x20000000, Type = 0xFFFFFFF2)
T05B4 000:495.152 - 0.005ms returns 0x00000005
T05B4 000:495.157 JLINK_Go()
T05B4 000:495.166   CPU_ReadMem(4 bytes @ 0xE0001000)
T05B4 000:502.693 - 7.535ms 
T05B4 000:502.729 JLINK_IsHalted()
T05B4 000:503.611 - 0.881ms returns FALSE
T05B4 000:503.630 JLINK_HasError()
T05B4 000:505.756 JLINK_IsHalted()
T05B4 000:506.695 - 0.938ms returns FALSE
T05B4 000:506.717 JLINK_HasError()
T05B4 000:508.519 JLINK_IsHalted()
T05B4 000:509.299 - 0.777ms returns FALSE
T05B4 000:509.323 JLINK_HasError()
T05B4 000:510.659 JLINK_IsHalted()
T05B4 000:511.405 - 0.746ms returns FALSE
T05B4 000:511.414 JLINK_HasError()
T05B4 000:512.515 JLINK_IsHalted()
T05B4 000:513.259 - 0.744ms returns FALSE
T05B4 000:513.340 JLINK_HasError()
T05B4 000:514.520 JLINK_IsHalted()
T05B4 000:515.255 - 0.733ms returns FALSE
T05B4 000:515.278 JLINK_HasError()
T05B4 000:516.493 JLINK_IsHalted()
T05B4 000:517.194 - 0.699ms returns FALSE
T05B4 000:517.214 JLINK_HasError()
T05B4 000:518.511 JLINK_IsHalted()
T05B4 000:519.281 - 0.770ms returns FALSE
T05B4 000:519.307 JLINK_HasError()
T05B4 000:520.669 JLINK_IsHalted()
T05B4 000:521.621 - 0.951ms returns FALSE
T05B4 000:521.643 JLINK_HasError()
T05B4 000:527.692 JLINK_IsHalted()
T05B4 000:534.944   CPU_ReadMem(2 bytes @ 0x20000000)
T05B4 000:535.819 - 8.125ms returns TRUE
T05B4 000:535.872 JLINK_ReadReg(R15 (PC))
T05B4 000:535.891 - 0.018ms returns 0x20000000
T05B4 000:535.905 JLINK_ClrBPEx(BPHandle = 0x00000005)
T05B4 000:535.917 - 0.012ms returns 0x00
T05B4 000:535.930 JLINK_ReadReg(R0)
T05B4 000:535.942 - 0.011ms returns 0x00000000
T05B4 000:537.380 JLINK_HasError()
T05B4 000:537.420 JLINK_WriteReg(R0, 0x00000400)
T05B4 000:537.436 - 0.016ms returns 0
T05B4 000:537.451 JLINK_WriteReg(R1, 0x00000200)
T05B4 000:537.463 - 0.012ms returns 0
T05B4 000:537.476 JLINK_WriteReg(R2, 0x000000FF)
T05B4 000:537.508 - 0.032ms returns 0
T05B4 000:537.521 JLINK_WriteReg(R3, 0x00000000)
T05B4 000:537.532 - 0.011ms returns 0
T05B4 000:537.545 JLINK_WriteReg(R4, 0x00000000)
T05B4 000:537.556 - 0.011ms returns 0
T05B4 000:537.568 JLINK_WriteReg(R5, 0x00000000)
T05B4 000:537.579 - 0.010ms returns 0
T05B4 000:537.593 JLINK_WriteReg(R6, 0x00000000)
T05B4 000:537.604 - 0.011ms returns 0
T05B4 000:537.617 JLINK_WriteReg(R7, 0x00000000)
T05B4 000:537.628 - 0.011ms returns 0
T05B4 000:537.641 JLINK_WriteReg(R8, 0x00000000)
T05B4 000:537.652 - 0.011ms returns 0
T05B4 000:537.665 JLINK_WriteReg(R9, 0x20000248)
T05B4 000:537.675 - 0.010ms returns 0
T05B4 000:538.010 JLINK_WriteReg(R10, 0x00000000)
T05B4 000:538.024 - 0.014ms returns 0
T05B4 000:538.037 JLINK_WriteReg(R11, 0x00000000)
T05B4 000:538.048 - 0.010ms returns 0
T05B4 000:538.060 JLINK_WriteReg(R12, 0x00000000)
T05B4 000:538.072 - 0.011ms returns 0
T05B4 000:538.085 JLINK_WriteReg(R13 (SP), 0x20001000)
T05B4 000:538.097 - 0.012ms returns 0
T05B4 000:538.111 JLINK_WriteReg(R14, 0x20000001)
T05B4 000:538.121 - 0.011ms returns 0
T05B4 000:538.134 JLINK_WriteReg(R15 (PC), 0x20000020)
T05B4 000:538.145 - 0.011ms returns 0
T05B4 000:538.158 JLINK_WriteReg(XPSR, 0x01000000)
T05B4 000:538.169 - 0.011ms returns 0
T05B4 000:538.181 JLINK_WriteReg(MSP, 0x20001000)
T05B4 000:538.192 - 0.011ms returns 0
T05B4 000:538.205 JLINK_WriteReg(PSP, 0x20001000)
T05B4 000:538.216 - 0.011ms returns 0
T05B4 000:538.228 JLINK_WriteReg(CFBP, 0x00000000)
T05B4 000:538.346 - 0.117ms returns 0
T05B4 000:538.363 JLINK_SetBPEx(Addr = 0x20000000, Type = 0xFFFFFFF2)
T05B4 000:538.377 - 0.015ms returns 0x00000006
T05B4 000:538.390 JLINK_Go()
T05B4 000:538.415   CPU_ReadMem(4 bytes @ 0xE0001000)
T05B4 000:545.912 - 7.519ms 
T05B4 000:546.188 JLINK_IsHalted()
T05B4 000:553.475   CPU_ReadMem(2 bytes @ 0x20000000)
T05B4 000:554.554 - 8.364ms returns TRUE
T05B4 000:554.611 JLINK_ReadReg(R15 (PC))
T05B4 000:554.630 - 0.019ms returns 0x20000000
T05B4 000:554.646 JLINK_ClrBPEx(BPHandle = 0x00000006)
T05B4 000:554.659 - 0.013ms returns 0x00
T05B4 000:554.673 JLINK_ReadReg(R0)
T05B4 000:554.685 - 0.012ms returns 0x00000001
T05B4 000:554.701 JLINK_HasError()
T05B4 000:554.716 JLINK_WriteReg(R0, 0x00000400)
T05B4 000:554.730 - 0.013ms returns 0
T05B4 000:554.744 JLINK_WriteReg(R1, 0x00000200)
T05B4 000:554.756 - 0.012ms returns 0
T05B4 000:554.769 JLINK_WriteReg(R2, 0x000000FF)
T05B4 000:554.780 - 0.011ms returns 0
T05B4 000:554.794 JLINK_WriteReg(R3, 0x00000000)
T05B4 000:554.805 - 0.011ms returns 0
T05B4 000:554.819 JLINK_WriteReg(R4, 0x00000000)
T05B4 000:554.830 - 0.011ms returns 0
T05B4 000:554.844 JLINK_WriteReg(R5, 0x00000000)
T05B4 000:554.856 - 0.011ms returns 0
T05B4 000:554.870 JLINK_WriteReg(R6, 0x00000000)
T05B4 000:554.881 - 0.011ms returns 0
T05B4 000:554.894 JLINK_WriteReg(R7, 0x00000000)
T05B4 000:554.915 - 0.020ms returns 0
T05B4 000:554.934 JLINK_WriteReg(R8, 0x00000000)
T05B4 000:554.946 - 0.011ms returns 0
T05B4 000:554.961 JLINK_WriteReg(R9, 0x20000248)
T05B4 000:554.972 - 0.011ms returns 0
T05B4 000:554.986 JLINK_WriteReg(R10, 0x00000000)
T05B4 000:554.998 - 0.012ms returns 0
T05B4 000:555.011 JLINK_WriteReg(R11, 0x00000000)
T05B4 000:555.023 - 0.011ms returns 0
T05B4 000:555.043 JLINK_WriteReg(R12, 0x00000000)
T05B4 000:555.054 - 0.011ms returns 0
T05B4 000:555.067 JLINK_WriteReg(R13 (SP), 0x20001000)
T05B4 000:555.080 - 0.012ms returns 0
T05B4 000:555.093 JLINK_WriteReg(R14, 0x20000001)
T05B4 000:555.105 - 0.011ms returns 0
T05B4 000:555.118 JLINK_WriteReg(R15 (PC), 0x200000DC)
T05B4 000:555.130 - 0.011ms returns 0
T05B4 000:555.143 JLINK_WriteReg(XPSR, 0x01000000)
T05B4 000:555.155 - 0.012ms returns 0
T05B4 000:555.168 JLINK_WriteReg(MSP, 0x20001000)
T05B4 000:555.180 - 0.012ms returns 0
T05B4 000:555.193 JLINK_WriteReg(PSP, 0x20001000)
T05B4 000:555.205 - 0.011ms returns 0
T05B4 000:555.218 JLINK_WriteReg(CFBP, 0x00000000)
T05B4 000:555.230 - 0.011ms returns 0
T05B4 000:555.245 JLINK_SetBPEx(Addr = 0x20000000, Type = 0xFFFFFFF2)
T05B4 000:555.257 - 0.013ms returns 0x00000007
T05B4 000:555.271 JLINK_Go()
T05B4 000:555.294   CPU_ReadMem(4 bytes @ 0xE0001000)
T05B4 000:563.151 - 7.878ms 
T05B4 000:563.207 JLINK_IsHalted()
T05B4 000:564.095 - 0.885ms returns FALSE
T05B4 000:564.120 JLINK_HasError()
T05B4 000:571.654 JLINK_IsHalted()
T05B4 000:572.617 - 0.962ms returns FALSE
T05B4 000:572.654 JLINK_HasError()
T05B4 000:574.668 JLINK_IsHalted()
T05B4 000:575.647 - 0.978ms returns FALSE
T05B4 000:575.695 JLINK_HasError()
T05B4 000:577.678 JLINK_IsHalted()
T05B4 000:578.633 - 0.953ms returns FALSE
T05B4 000:578.682 JLINK_HasError()
T05B4 000:580.667 JLINK_IsHalted()
T05B4 000:581.642 - 0.973ms returns FALSE
T05B4 000:581.694 JLINK_HasError()
T05B4 000:583.667 JLINK_IsHalted()
T05B4 000:590.988   CPU_ReadMem(2 bytes @ 0x20000000)
T05B4 000:591.958 - 8.289ms returns TRUE
T05B4 000:592.014 JLINK_ReadReg(R15 (PC))
T05B4 000:592.034 - 0.020ms returns 0x20000000
T05B4 000:592.051 JLINK_ClrBPEx(BPHandle = 0x00000007)
T05B4 000:592.065 - 0.014ms returns 0x00
T05B4 000:592.080 JLINK_ReadReg(R0)
T05B4 000:592.093 - 0.012ms returns 0x00000000
T05B4 000:597.039 JLINK_HasError()
T05B4 000:597.071 JLINK_WriteReg(R0, 0x00000600)
T05B4 000:597.084 - 0.013ms returns 0
T05B4 000:597.095 JLINK_WriteReg(R1, 0x00000200)
T05B4 000:597.105 - 0.009ms returns 0
T05B4 000:597.115 JLINK_WriteReg(R2, 0x000000FF)
T05B4 000:597.124 - 0.009ms returns 0
T05B4 000:597.135 JLINK_WriteReg(R3, 0x00000000)
T05B4 000:597.144 - 0.009ms returns 0
T05B4 000:597.154 JLINK_WriteReg(R4, 0x00000000)
T05B4 000:597.164 - 0.009ms returns 0
T05B4 000:597.174 JLINK_WriteReg(R5, 0x00000000)
T05B4 000:597.183 - 0.009ms returns 0
T05B4 000:597.193 JLINK_WriteReg(R6, 0x00000000)
T05B4 000:597.202 - 0.009ms returns 0
T05B4 000:597.213 JLINK_WriteReg(R7, 0x00000000)
T05B4 000:597.222 - 0.009ms returns 0
T05B4 000:597.233 JLINK_WriteReg(R8, 0x00000000)
T05B4 000:597.242 - 0.009ms returns 0
T05B4 000:597.252 JLINK_WriteReg(R9, 0x20000248)
T05B4 000:597.261 - 0.009ms returns 0
T05B4 000:597.272 JLINK_WriteReg(R10, 0x00000000)
T05B4 000:597.281 - 0.009ms returns 0
T05B4 000:597.292 JLINK_WriteReg(R11, 0x00000000)
T05B4 000:597.300 - 0.009ms returns 0
T05B4 000:597.311 JLINK_WriteReg(R12, 0x00000000)
T05B4 000:597.320 - 0.009ms returns 0
T05B4 000:597.331 JLINK_WriteReg(R13 (SP), 0x20001000)
T05B4 000:597.341 - 0.010ms returns 0
T05B4 000:597.351 JLINK_WriteReg(R14, 0x20000001)
T05B4 000:597.360 - 0.009ms returns 0
T05B4 000:597.371 JLINK_WriteReg(R15 (PC), 0x20000020)
T05B4 000:597.386 - 0.009ms returns 0
T05B4 000:597.396 JLINK_WriteReg(XPSR, 0x01000000)
T05B4 000:597.405 - 0.009ms returns 0
T05B4 000:597.416 JLINK_WriteReg(MSP, 0x20001000)
T05B4 000:597.425 - 0.009ms returns 0
T05B4 000:597.435 JLINK_WriteReg(PSP, 0x20001000)
T05B4 000:597.445 - 0.009ms returns 0
T05B4 000:597.465 JLINK_WriteReg(CFBP, 0x00000000)
T05B4 000:597.479 - 0.014ms returns 0
T05B4 000:597.599 JLINK_SetBPEx(Addr = 0x20000000, Type = 0xFFFFFFF2)
T05B4 000:597.611 - 0.013ms returns 0x00000008
T05B4 000:597.623 JLINK_Go()
T05B4 000:597.644   CPU_ReadMem(4 bytes @ 0xE0001000)
T05B4 000:605.290 - 7.665ms 
T05B4 000:605.374 JLINK_IsHalted()
T05B4 000:612.758   CPU_ReadMem(2 bytes @ 0x20000000)
T05B4 000:613.736 - 8.360ms returns TRUE
T05B4 000:613.821 JLINK_ReadReg(R15 (PC))
T05B4 000:613.844 - 0.022ms returns 0x20000000
T05B4 000:613.859 JLINK_ClrBPEx(BPHandle = 0x00000008)
T05B4 000:613.873 - 0.013ms returns 0x00
T05B4 000:613.888 JLINK_ReadReg(R0)
T05B4 000:613.900 - 0.012ms returns 0x00000001
T05B4 000:613.922 JLINK_HasError()
T05B4 000:613.945 JLINK_WriteReg(R0, 0x00000600)
T05B4 000:613.960 - 0.014ms returns 0
T05B4 000:613.986 JLINK_WriteReg(R1, 0x00000200)
T05B4 000:613.999 - 0.012ms returns 0
T05B4 000:614.019 JLINK_WriteReg(R2, 0x000000FF)
T05B4 000:614.031 - 0.012ms returns 0
T05B4 000:614.051 JLINK_WriteReg(R3, 0x00000000)
T05B4 000:614.064 - 0.012ms returns 0
T05B4 000:614.078 JLINK_WriteReg(R4, 0x00000000)
T05B4 000:614.089 - 0.012ms returns 0
T05B4 000:614.109 JLINK_WriteReg(R5, 0x00000000)
T05B4 000:614.123 - 0.013ms returns 0
T05B4 000:614.136 JLINK_WriteReg(R6, 0x00000000)
T05B4 000:614.148 - 0.011ms returns 0
T05B4 000:614.167 JLINK_WriteReg(R7, 0x00000000)
T05B4 000:614.180 - 0.012ms returns 0
T05B4 000:614.199 JLINK_WriteReg(R8, 0x00000000)
T05B4 000:614.210 - 0.012ms returns 0
T05B4 000:614.229 JLINK_WriteReg(R9, 0x20000248)
T05B4 000:614.242 - 0.013ms returns 0
T05B4 000:614.256 JLINK_WriteReg(R10, 0x00000000)
T05B4 000:614.267 - 0.011ms returns 0
T05B4 000:614.281 JLINK_WriteReg(R11, 0x00000000)
T05B4 000:614.292 - 0.011ms returns 0
T05B4 000:614.306 JLINK_WriteReg(R12, 0x00000000)
T05B4 000:614.317 - 0.011ms returns 0
T05B4 000:614.331 JLINK_WriteReg(R13 (SP), 0x20001000)
T05B4 000:614.343 - 0.012ms returns 0
T05B4 000:614.364 JLINK_WriteReg(R14, 0x20000001)
T05B4 000:614.376 - 0.012ms returns 0
T05B4 000:614.396 JLINK_WriteReg(R15 (PC), 0x200000DC)
T05B4 000:614.415 - 0.019ms returns 0
T05B4 000:614.436 JLINK_WriteReg(XPSR, 0x01000000)
T05B4 000:614.448 - 0.012ms returns 0
T05B4 000:614.468 JLINK_WriteReg(MSP, 0x20001000)
T05B4 000:614.500 - 0.012ms returns 0
T05B4 000:614.523 JLINK_WriteReg(PSP, 0x20001000)
T05B4 000:614.536 - 0.013ms returns 0
T05B4 000:614.550 JLINK_WriteReg(CFBP, 0x00000000)
T05B4 000:614.562 - 0.012ms returns 0
T05B4 000:614.583 JLINK_SetBPEx(Addr = 0x20000000, Type = 0xFFFFFFF2)
T05B4 000:614.597 - 0.015ms returns 0x00000009
T05B4 000:614.618 JLINK_Go()
T05B4 000:614.645   CPU_ReadMem(4 bytes @ 0xE0001000)
T05B4 000:621.642 - 7.021ms 
T05B4 000:621.697 JLINK_IsHalted()
T05B4 000:622.348 - 0.649ms returns FALSE
T05B4 000:622.381 JLINK_HasError()
T05B4 000:623.523 JLINK_IsHalted()
T05B4 000:624.227 - 0.703ms returns FALSE
T05B4 000:624.251 JLINK_HasError()
T05B4 000:625.514 JLINK_IsHalted()
T05B4 000:626.148 - 0.634ms returns FALSE
T05B4 000:626.174 JLINK_HasError()
T05B4 000:627.513 JLINK_IsHalted()
T05B4 000:628.150 - 0.635ms returns FALSE
T05B4 000:628.171 JLINK_HasError()
T05B4 000:629.524 JLINK_IsHalted()
T05B4 000:630.212 - 0.687ms returns FALSE
T05B4 000:630.229 JLINK_HasError()
T05B4 000:637.648 JLINK_IsHalted()
T05B4 000:638.636 - 0.987ms returns FALSE
T05B4 000:638.681 JLINK_HasError()
T05B4 000:640.666 JLINK_IsHalted()
T05B4 000:641.636 - 0.968ms returns FALSE
T05B4 000:641.684 JLINK_HasError()
T05B4 000:643.803 JLINK_IsHalted()
T05B4 000:651.187   CPU_ReadMem(2 bytes @ 0x20000000)
T05B4 000:652.206 - 8.402ms returns TRUE
T05B4 000:652.282 JLINK_ReadReg(R15 (PC))
T05B4 000:652.302 - 0.020ms returns 0x20000000
T05B4 000:652.318 JLINK_ClrBPEx(BPHandle = 0x00000009)
T05B4 000:652.331 - 0.013ms returns 0x00
T05B4 000:652.345 JLINK_ReadReg(R0)
T05B4 000:652.358 - 0.012ms returns 0x00000000
T05B4 000:653.620 JLINK_HasError()
T05B4 000:653.658 JLINK_WriteReg(R0, 0x00000800)
T05B4 000:653.687 - 0.028ms returns 0
T05B4 000:653.707 JLINK_WriteReg(R1, 0x00000200)
T05B4 000:653.719 - 0.012ms returns 0
T05B4 000:653.733 JLINK_WriteReg(R2, 0x000000FF)
T05B4 000:653.745 - 0.011ms returns 0
T05B4 000:653.759 JLINK_WriteReg(R3, 0x00000000)
T05B4 000:653.770 - 0.012ms returns 0
T05B4 000:653.784 JLINK_WriteReg(R4, 0x00000000)
T05B4 000:653.796 - 0.012ms returns 0
T05B4 000:653.811 JLINK_WriteReg(R5, 0x00000000)
T05B4 000:653.823 - 0.012ms returns 0
T05B4 000:653.837 JLINK_WriteReg(R6, 0x00000000)
T05B4 000:653.848 - 0.012ms returns 0
T05B4 000:653.862 JLINK_WriteReg(R7, 0x00000000)
T05B4 000:653.874 - 0.012ms returns 0
T05B4 000:653.888 JLINK_WriteReg(R8, 0x00000000)
T05B4 000:653.899 - 0.011ms returns 0
T05B4 000:653.914 JLINK_WriteReg(R9, 0x20000248)
T05B4 000:653.925 - 0.012ms returns 0
T05B4 000:653.939 JLINK_WriteReg(R10, 0x00000000)
T05B4 000:653.951 - 0.012ms returns 0
T05B4 000:653.965 JLINK_WriteReg(R11, 0x00000000)
T05B4 000:653.983 - 0.018ms returns 0
T05B4 000:653.996 JLINK_WriteReg(R12, 0x00000000)
T05B4 000:654.008 - 0.012ms returns 0
T05B4 000:654.022 JLINK_WriteReg(R13 (SP), 0x20001000)
T05B4 000:654.035 - 0.013ms returns 0
T05B4 000:654.049 JLINK_WriteReg(R14, 0x20000001)
T05B4 000:654.061 - 0.012ms returns 0
T05B4 000:654.075 JLINK_WriteReg(R15 (PC), 0x20000020)
T05B4 000:654.087 - 0.012ms returns 0
T05B4 000:654.101 JLINK_WriteReg(XPSR, 0x01000000)
T05B4 000:654.113 - 0.012ms returns 0
T05B4 000:654.127 JLINK_WriteReg(MSP, 0x20001000)
T05B4 000:654.139 - 0.012ms returns 0
T05B4 000:654.153 JLINK_WriteReg(PSP, 0x20001000)
T05B4 000:654.164 - 0.011ms returns 0
T05B4 000:654.178 JLINK_WriteReg(CFBP, 0x00000000)
T05B4 000:654.192 - 0.014ms returns 0
T05B4 000:654.207 JLINK_SetBPEx(Addr = 0x20000000, Type = 0xFFFFFFF2)
T05B4 000:654.221 - 0.014ms returns 0x0000000A
T05B4 000:654.235 JLINK_Go()
T05B4 000:654.261   CPU_ReadMem(4 bytes @ 0xE0001000)
T05B4 000:661.853 - 7.617ms 
T05B4 000:661.888 JLINK_IsHalted()
T05B4 000:669.221   CPU_ReadMem(2 bytes @ 0x20000000)
T05B4 000:670.315 - 8.424ms returns TRUE
T05B4 000:670.372 JLINK_ReadReg(R15 (PC))
T05B4 000:670.392 - 0.020ms returns 0x20000000
T05B4 000:670.407 JLINK_ClrBPEx(BPHandle = 0x0000000A)
T05B4 000:670.420 - 0.013ms returns 0x00
T05B4 000:670.435 JLINK_ReadReg(R0)
T05B4 000:670.447 - 0.012ms returns 0x00000001
T05B4 000:670.462 JLINK_HasError()
T05B4 000:670.506 JLINK_WriteReg(R0, 0x00000800)
T05B4 000:670.521 - 0.015ms returns 0
T05B4 000:670.535 JLINK_WriteReg(R1, 0x00000200)
T05B4 000:670.546 - 0.011ms returns 0
T05B4 000:670.562 JLINK_WriteReg(R2, 0x000000FF)
T05B4 000:670.573 - 0.011ms returns 0
T05B4 000:670.586 JLINK_WriteReg(R3, 0x00000000)
T05B4 000:670.598 - 0.011ms returns 0
T05B4 000:670.612 JLINK_WriteReg(R4, 0x00000000)
T05B4 000:670.623 - 0.011ms returns 0
T05B4 000:670.637 JLINK_WriteReg(R5, 0x00000000)
T05B4 000:670.648 - 0.011ms returns 0
T05B4 000:670.662 JLINK_WriteReg(R6, 0x00000000)
T05B4 000:670.674 - 0.011ms returns 0
T05B4 000:670.687 JLINK_WriteReg(R7, 0x00000000)
T05B4 000:670.699 - 0.011ms returns 0
T05B4 000:670.712 JLINK_WriteReg(R8, 0x00000000)
T05B4 000:670.724 - 0.011ms returns 0
T05B4 000:670.737 JLINK_WriteReg(R9, 0x20000248)
T05B4 000:670.748 - 0.011ms returns 0
T05B4 000:670.762 JLINK_WriteReg(R10, 0x00000000)
T05B4 000:670.774 - 0.011ms returns 0
T05B4 000:670.787 JLINK_WriteReg(R11, 0x00000000)
T05B4 000:670.798 - 0.011ms returns 0
T05B4 000:670.812 JLINK_WriteReg(R12, 0x00000000)
T05B4 000:670.823 - 0.011ms returns 0
T05B4 000:670.837 JLINK_WriteReg(R13 (SP), 0x20001000)
T05B4 000:670.849 - 0.012ms returns 0
T05B4 000:670.863 JLINK_WriteReg(R14, 0x20000001)
T05B4 000:670.875 - 0.012ms returns 0
T05B4 000:670.889 JLINK_WriteReg(R15 (PC), 0x200000DC)
T05B4 000:670.906 - 0.018ms returns 0
T05B4 000:670.920 JLINK_WriteReg(XPSR, 0x01000000)
T05B4 000:670.932 - 0.012ms returns 0
T05B4 000:670.945 JLINK_WriteReg(MSP, 0x20001000)
T05B4 000:670.957 - 0.011ms returns 0
T05B4 000:670.970 JLINK_WriteReg(PSP, 0x20001000)
T05B4 000:670.994 - 0.024ms returns 0
T05B4 000:671.093 JLINK_WriteReg(CFBP, 0x00000000)
T05B4 000:671.106 - 0.012ms returns 0
T05B4 000:671.120 JLINK_SetBPEx(Addr = 0x20000000, Type = 0xFFFFFFF2)
T05B4 000:671.134 - 0.014ms returns 0x0000000B
T05B4 000:671.148 JLINK_Go()
T05B4 000:671.173   CPU_ReadMem(4 bytes @ 0xE0001000)
T05B4 000:678.808 - 7.658ms 
T05B4 000:678.896 JLINK_IsHalted()
T05B4 000:679.662 - 0.765ms returns FALSE
T05B4 000:679.688 JLINK_HasError()
T05B4 000:681.510 JLINK_IsHalted()
T05B4 000:682.280 - 0.768ms returns FALSE
T05B4 000:682.305 JLINK_HasError()
T05B4 000:683.615 JLINK_IsHalted()
T05B4 000:684.427 - 0.810ms returns FALSE
T05B4 000:684.452 JLINK_HasError()
T05B4 000:686.508 JLINK_IsHalted()
T05B4 000:687.251 - 0.743ms returns FALSE
T05B4 000:687.275 JLINK_HasError()
T05B4 000:688.507 JLINK_IsHalted()
T05B4 000:689.253 - 0.745ms returns FALSE
T05B4 000:689.276 JLINK_HasError()
T05B4 000:690.508 JLINK_IsHalted()
T05B4 000:691.264 - 0.754ms returns FALSE
T05B4 000:691.288 JLINK_HasError()
T05B4 000:692.507 JLINK_IsHalted()
T05B4 000:693.269 - 0.762ms returns FALSE
T05B4 000:693.291 JLINK_HasError()
T05B4 000:694.518 JLINK_IsHalted()
T05B4 000:695.331 - 0.812ms returns FALSE
T05B4 000:695.355 JLINK_HasError()
T05B4 000:696.507 JLINK_IsHalted()
T05B4 000:697.252 - 0.744ms returns FALSE
T05B4 000:697.276 JLINK_HasError()
T05B4 000:698.507 JLINK_IsHalted()
T05B4 000:705.369   CPU_ReadMem(2 bytes @ 0x20000000)
T05B4 000:706.115 - 7.607ms returns TRUE
T05B4 000:706.143 JLINK_ReadReg(R15 (PC))
T05B4 000:706.160 - 0.017ms returns 0x20000000
T05B4 000:706.176 JLINK_ClrBPEx(BPHandle = 0x0000000B)
T05B4 000:706.189 - 0.013ms returns 0x00
T05B4 000:706.204 JLINK_ReadReg(R0)
T05B4 000:706.217 - 0.012ms returns 0x00000000
T05B4 000:721.822 JLINK_HasError()
T05B4 000:721.838 JLINK_WriteReg(R0, 0x00000A00)
T05B4 000:721.844 - 0.006ms returns 0
T05B4 000:721.850 JLINK_WriteReg(R1, 0x00000200)
T05B4 000:721.855 - 0.005ms returns 0
T05B4 000:721.860 JLINK_WriteReg(R2, 0x000000FF)
T05B4 000:721.865 - 0.005ms returns 0
T05B4 000:721.871 JLINK_WriteReg(R3, 0x00000000)
T05B4 000:721.876 - 0.004ms returns 0
T05B4 000:721.881 JLINK_WriteReg(R4, 0x00000000)
T05B4 000:721.886 - 0.004ms returns 0
T05B4 000:721.891 JLINK_WriteReg(R5, 0x00000000)
T05B4 000:721.896 - 0.004ms returns 0
T05B4 000:721.901 JLINK_WriteReg(R6, 0x00000000)
T05B4 000:721.906 - 0.004ms returns 0
T05B4 000:721.911 JLINK_WriteReg(R7, 0x00000000)
T05B4 000:721.916 - 0.004ms returns 0
T05B4 000:721.921 JLINK_WriteReg(R8, 0x00000000)
T05B4 000:721.926 - 0.004ms returns 0
T05B4 000:721.931 JLINK_WriteReg(R9, 0x20000248)
T05B4 000:721.936 - 0.004ms returns 0
T05B4 000:721.941 JLINK_WriteReg(R10, 0x00000000)
T05B4 000:721.946 - 0.004ms returns 0
T05B4 000:721.952 JLINK_WriteReg(R11, 0x00000000)
T05B4 000:721.956 - 0.004ms returns 0
T05B4 000:721.962 JLINK_WriteReg(R12, 0x00000000)
T05B4 000:721.966 - 0.004ms returns 0
T05B4 000:721.972 JLINK_WriteReg(R13 (SP), 0x20001000)
T05B4 000:721.977 - 0.005ms returns 0
T05B4 000:721.982 JLINK_WriteReg(R14, 0x20000001)
T05B4 000:721.987 - 0.004ms returns 0
T05B4 000:721.992 JLINK_WriteReg(R15 (PC), 0x20000020)
T05B4 000:721.997 - 0.004ms returns 0
T05B4 000:722.003 JLINK_WriteReg(XPSR, 0x01000000)
T05B4 000:722.007 - 0.004ms returns 0
T05B4 000:722.013 JLINK_WriteReg(MSP, 0x20001000)
T05B4 000:722.017 - 0.004ms returns 0
T05B4 000:722.023 JLINK_WriteReg(PSP, 0x20001000)
T05B4 000:722.028 - 0.004ms returns 0
T05B4 000:722.033 JLINK_WriteReg(CFBP, 0x00000000)
T05B4 000:722.038 - 0.004ms returns 0
T05B4 000:722.043 JLINK_SetBPEx(Addr = 0x20000000, Type = 0xFFFFFFF2)
T05B4 000:722.049 - 0.005ms returns 0x0000000C
T05B4 000:722.054 JLINK_Go()
T05B4 000:722.064   CPU_ReadMem(4 bytes @ 0xE0001000)
T05B4 000:729.543 - 7.487ms 
T05B4 000:729.589 JLINK_IsHalted()
T05B4 000:736.663   CPU_ReadMem(2 bytes @ 0x20000000)
T05B4 000:737.305 - 7.714ms returns TRUE
T05B4 000:737.341 JLINK_ReadReg(R15 (PC))
T05B4 000:737.358 - 0.016ms returns 0x20000000
T05B4 000:737.389 JLINK_ClrBPEx(BPHandle = 0x0000000C)
T05B4 000:737.401 - 0.012ms returns 0x00
T05B4 000:737.414 JLINK_ReadReg(R0)
T05B4 000:737.425 - 0.010ms returns 0x00000001
T05B4 000:737.444 JLINK_HasError()
T05B4 000:737.459 JLINK_WriteReg(R0, 0x00000A00)
T05B4 000:737.471 - 0.012ms returns 0
T05B4 000:737.505 JLINK_WriteReg(R1, 0x00000200)
T05B4 000:737.517 - 0.011ms returns 0
T05B4 000:737.529 JLINK_WriteReg(R2, 0x000000FF)
T05B4 000:737.539 - 0.010ms returns 0
T05B4 000:737.559 JLINK_WriteReg(R3, 0x00000000)
T05B4 000:737.570 - 0.011ms returns 0
T05B4 000:737.593 JLINK_WriteReg(R4, 0x00000000)
T05B4 000:737.604 - 0.011ms returns 0
T05B4 000:737.616 JLINK_WriteReg(R5, 0x00000000)
T05B4 000:737.627 - 0.010ms returns 0
T05B4 000:737.645 JLINK_WriteReg(R6, 0x00000000)
T05B4 000:737.656 - 0.011ms returns 0
T05B4 000:737.709 JLINK_WriteReg(R7, 0x00000000)
T05B4 000:737.720 - 0.011ms returns 0
T05B4 000:737.732 JLINK_WriteReg(R8, 0x00000000)
T05B4 000:737.768 - 0.035ms returns 0
T05B4 000:737.785 JLINK_WriteReg(R9, 0x20000248)
T05B4 000:737.796 - 0.011ms returns 0
T05B4 000:737.808 JLINK_WriteReg(R10, 0x00000000)
T05B4 000:737.818 - 0.010ms returns 0
T05B4 000:737.830 JLINK_WriteReg(R11, 0x00000000)
T05B4 000:737.841 - 0.010ms returns 0
T05B4 000:737.853 JLINK_WriteReg(R12, 0x00000000)
T05B4 000:737.864 - 0.011ms returns 0
T05B4 000:737.877 JLINK_WriteReg(R13 (SP), 0x20001000)
T05B4 000:737.889 - 0.012ms returns 0
T05B4 000:737.903 JLINK_WriteReg(R14, 0x20000001)
T05B4 000:737.913 - 0.011ms returns 0
T05B4 000:737.933 JLINK_WriteReg(R15 (PC), 0x200000DC)
T05B4 000:737.945 - 0.012ms returns 0
T05B4 000:737.965 JLINK_WriteReg(XPSR, 0x01000000)
T05B4 000:737.977 - 0.012ms returns 0
T05B4 000:737.996 JLINK_WriteReg(MSP, 0x20001000)
T05B4 000:738.014 - 0.018ms returns 0
T05B4 000:738.027 JLINK_WriteReg(PSP, 0x20001000)
T05B4 000:738.038 - 0.011ms returns 0
T05B4 000:738.056 JLINK_WriteReg(CFBP, 0x00000000)
T05B4 000:738.068 - 0.012ms returns 0
T05B4 000:738.086 JLINK_SetBPEx(Addr = 0x20000000, Type = 0xFFFFFFF2)
T05B4 000:738.101 - 0.015ms returns 0x0000000D
T05B4 000:738.119 JLINK_Go()
T05B4 000:738.143   CPU_ReadMem(4 bytes @ 0xE0001000)
T05B4 000:745.418 - 7.297ms 
T05B4 000:745.459 JLINK_IsHalted()
T05B4 000:746.206 - 0.746ms returns FALSE
T05B4 000:746.234 JLINK_HasError()
T05B4 000:752.616 JLINK_IsHalted()
T05B4 000:753.441 - 0.822ms returns FALSE
T05B4 000:753.477 JLINK_HasError()
T05B4 000:755.518 JLINK_IsHalted()
T05B4 000:756.286 - 0.766ms returns FALSE
T05B4 000:756.311 JLINK_HasError()
T05B4 000:757.514 JLINK_IsHalted()
T05B4 000:758.287 - 0.772ms returns FALSE
T05B4 000:758.302 JLINK_HasError()
T05B4 000:759.512 JLINK_IsHalted()
T05B4 000:760.297 - 0.784ms returns FALSE
T05B4 000:760.320 JLINK_HasError()
T05B4 000:761.512 JLINK_IsHalted()
T05B4 000:762.326 - 0.813ms returns FALSE
T05B4 000:762.352 JLINK_HasError()
T05B4 000:763.579 JLINK_IsHalted()
T05B4 000:764.432 - 0.851ms returns FALSE
T05B4 000:764.457 JLINK_HasError()
T05B4 000:766.498 JLINK_IsHalted()
T05B4 000:773.710   CPU_ReadMem(2 bytes @ 0x20000000)
T05B4 000:774.621 - 8.122ms returns TRUE
T05B4 000:774.654 JLINK_ReadReg(R15 (PC))
T05B4 000:774.671 - 0.017ms returns 0x20000000
T05B4 000:774.779 JLINK_ClrBPEx(BPHandle = 0x0000000D)
T05B4 000:774.795 - 0.016ms returns 0x00
T05B4 000:774.809 JLINK_ReadReg(R0)
T05B4 000:774.822 - 0.012ms returns 0x00000000
T05B4 000:775.954 JLINK_HasError()
T05B4 000:775.987 JLINK_WriteReg(R0, 0x00000C00)
T05B4 000:776.003 - 0.016ms returns 0
T05B4 000:776.018 JLINK_WriteReg(R1, 0x00000200)
T05B4 000:776.030 - 0.012ms returns 0
T05B4 000:776.044 JLINK_WriteReg(R2, 0x000000FF)
T05B4 000:776.056 - 0.012ms returns 0
T05B4 000:776.070 JLINK_WriteReg(R3, 0x00000000)
T05B4 000:776.082 - 0.012ms returns 0
T05B4 000:776.095 JLINK_WriteReg(R4, 0x00000000)
T05B4 000:776.107 - 0.012ms returns 0
T05B4 000:776.121 JLINK_WriteReg(R5, 0x00000000)
T05B4 000:776.133 - 0.012ms returns 0
T05B4 000:776.147 JLINK_WriteReg(R6, 0x00000000)
T05B4 000:776.170 - 0.023ms returns 0
T05B4 000:776.189 JLINK_WriteReg(R7, 0x00000000)
T05B4 000:776.202 - 0.012ms returns 0
T05B4 000:776.216 JLINK_WriteReg(R8, 0x00000000)
T05B4 000:776.228 - 0.012ms returns 0
T05B4 000:776.241 JLINK_WriteReg(R9, 0x20000248)
T05B4 000:776.253 - 0.011ms returns 0
T05B4 000:776.267 JLINK_WriteReg(R10, 0x00000000)
T05B4 000:776.279 - 0.012ms returns 0
T05B4 000:776.293 JLINK_WriteReg(R11, 0x00000000)
T05B4 000:776.305 - 0.012ms returns 0
T05B4 000:776.319 JLINK_WriteReg(R12, 0x00000000)
T05B4 000:776.331 - 0.011ms returns 0
T05B4 000:776.345 JLINK_WriteReg(R13 (SP), 0x20001000)
T05B4 000:776.358 - 0.013ms returns 0
T05B4 000:776.371 JLINK_WriteReg(R14, 0x20000001)
T05B4 000:776.383 - 0.011ms returns 0
T05B4 000:776.397 JLINK_WriteReg(R15 (PC), 0x20000020)
T05B4 000:776.409 - 0.012ms returns 0
T05B4 000:776.423 JLINK_WriteReg(XPSR, 0x01000000)
T05B4 000:776.435 - 0.012ms returns 0
T05B4 000:776.449 JLINK_WriteReg(MSP, 0x20001000)
T05B4 000:776.460 - 0.012ms returns 0
T05B4 000:776.474 JLINK_WriteReg(PSP, 0x20001000)
T05B4 000:776.499 - 0.024ms returns 0
T05B4 000:776.514 JLINK_WriteReg(CFBP, 0x00000000)
T05B4 000:776.525 - 0.011ms returns 0
T05B4 000:776.539 JLINK_SetBPEx(Addr = 0x20000000, Type = 0xFFFFFFF2)
T05B4 000:776.553 - 0.015ms returns 0x0000000E
T05B4 000:776.566 JLINK_Go()
T05B4 000:776.591   CPU_ReadMem(4 bytes @ 0xE0001000)
T05B4 000:783.580 - 7.013ms 
T05B4 000:783.598 JLINK_IsHalted()
T05B4 000:790.549   CPU_ReadMem(2 bytes @ 0x20000000)
T05B4 000:791.417 - 7.817ms returns TRUE
T05B4 000:791.442 JLINK_ReadReg(R15 (PC))
T05B4 000:791.454 - 0.011ms returns 0x20000000
T05B4 000:791.465 JLINK_ClrBPEx(BPHandle = 0x0000000E)
T05B4 000:791.475 - 0.010ms returns 0x00
T05B4 000:791.494 JLINK_ReadReg(R0)
T05B4 000:791.504 - 0.009ms returns 0x00000001
T05B4 000:791.515 JLINK_HasError()
